±‰µÁ’æ1_µ‰–Õ∑¯…‰Õ¯,KX3_4,2000
8,08A,00D
1,KX3_4:n:U:bus2:A,A,,kV,0.00010000000,-1.930734,0.000000,-61383,99998,1,1,P
2,KX3_4:n:U:bus2:B,B,,kV,0.0010000000,-85.073181,0.000000,69750,99998,1,1,P
3,KX3_4:n:U:bus2:C,C,,kV,0.0010000000,-84.446426,0.000000,67460,99998,1,1,P
4,KX3_4:n:U0x3:bus2,,,kV,0.0010000000,-74.951599,0.000000,47850,99998,1,1,P
5,KX3_4:m:I:bus2:A,A,,kA,0.000010000000,-0.884334,0.000000,74207,99998,1,1,P
6,KX3_4:m:I:bus2:B,B,,kA,0.0000010000000,-0.06791513,0.000000,33339,99998,1,1,P
7,KX3_4:m:I:bus2:C,C,,kA,0.0000010000000,-0.06799161,0.000000,36010,99998,1,1,P
8,KX3_4:m:I0x3:bus2,,,kA,0.000010000000,-0.876342,0.000000,75777,99998,1,1,P
50
1
51200.000000,30719
29/01/2018,11:06:01.00000
29/01/2018,11:06:01.00000
ASCII
1.000000
0000000001,0000000000,089896,085018,077443,074952,085443,078570,087238,087634
0000000002,0000000020,089647,085068,077418,074952,085447,078389,087380,087634
0000000003,0000000039,089398,085117,077393,074952,085451,078207,087521,087634
0000000004,0000000059,089144,085167,077369,074952,085456,078025,087661,087634
0000000005,0000000078,088890,085217,077344,074952,085460,077843,087801,087634
0000000006,0000000098,088631,085267,077320,074952,085464,077660,087939,087634
0000000007,0000000117,088371,085317,077297,074952,085469,077477,088078,087634
0000000008,0000000137,088107,085366,077273,074952,085473,077293,088215,087634
0000000009,0000000156,087842,085416,077250,074952,085478,077109,088351,087634
0000000010,0000000176,087573,085466,077227,074952,085483,076925,088487,087634
0000000011,0000000195,087303,085516,077204,074952,085488,076740,088622,087634
0000000012,0000000215,087028,085566,077182,074952,085493,076555,088756,087634
0000000013,0000000234,086753,085615,077160,074952,085498,076370,088890,087634
0000000014,0000000254,086474,085665,077138,074952,085503,076184,089022,087634
0000000015,0000000273,086193,085715,077116,074952,085509,075999,089154,087634
0000000016,0000000293,085909,085764,077095,074952,085514,075812,089285,087634
0000000017,0000000313,085623,085814,077074,074952,085520,075626,089415,087634
0000000018,0000000332,085334,085864,077053,074952,085526,075439,089545,087634
0000000019,0000000352,085043,085913,077033,074952,085532,075252,089673,087634
0000000020,0000000371,084749,085963,077013,074952,085537,075065,089801,087634
0000000021,0000000391,084453,086012,076993,074952,085544,074877,089928,087634
0000000022,0000000410,084154,086062,076973,074952,085550,074689,090054,087634
0000000023,0000000430,083853,086111,076954,074952,085556,074501,090180,087634
0000000024,0000000449,083550,086161,076935,074952,085562,074313,090304,087634
0000000025,0000000469,083244,086210,076916,074952,085569,074124,090428,087634
0000000026,0000000488,082936,086259,076897,074952,085575,073936,090551,087634
0000000027,0000000508,082625,086309,076879,074952,085582,073746,090673,087634
0000000028,0000000527,082312,086358,076861,074952,085589,073557,090794,087634
0000000029,0000000547,081997,086407,076844,074952,085596,073368,090914,087634
0000000030,0000000566,081679,086456,076826,074952,085603,073178,091033,087634
0000000031,0000000586,081359,086505,076809,074952,085610,072988,091152,087634
0000000032,0000000605,081037,086554,076792,074952,085617,072798,091270,087634
0000000033,0000000625,080711,086603,076776,074952,085625,072608,091386,087634
0000000034,0000000645,080385,086652,076760,074952,085632,072417,091502,087634
0000000035,0000000664,080055,086701,076744,074952,085640,072227,091617,087634
0000000036,0000000684,079724,086750,076728,074952,085647,072036,091731,087634
0000000037,0000000703,079389,086798,076713,074952,085655,071845,091844,087634
0000000038,0000000723,079054,086847,076698,074952,085663,071654,091957,087634
0000000039,0000000742,078714,086896,076683,074952,085671,071463,092068,087634
0000000040,0000000762,078375,086944,076669,074952,085679,071271,092179,087634
0000000041,0000000781,078031,086993,076655,074952,085687,071080,092288,087634
0000000042,0000000801,077687,087041,076641,074952,085696,070888,092397,087634
0000000043,0000000820,077338,087089,076627,074952,085704,070696,092505,087634
0000000044,0000000840,076990,087138,076614,074952,085712,070505,092612,087634
0000000045,0000000859,076637,087186,076601,074952,085721,070313,092718,087634
0000000046,0000000879,076284,087234,076588,074952,085730,070121,092823,087634
0000000047,0000000898,075927,087282,076576,074952,085739,069929,092927,087634
0000000048,0000000918,075570,087330,076564,074952,085747,069737,093030,087634
0000000049,0000000938,075209,087378,076552,074952,085756,069544,093132,087634
0000000050,0000000957,074847,087425,076540,074952,085766,069352,093233,087634
0000000051,0000000977,074482,087473,076529,074952,085775,069160,093333,087634
0000000052,0000000996,074116,087521,076518,074952,085784,068967,093433,087634
0000000053,0000001016,073747,087568,076508,074952,085794,068775,093531,087634
0000000054,0000001035,073377,087615,076497,074952,085803,068582,093629,087634
0000000055,0000001055,073004,087663,076487,074952,085813,068390,093725,087634
0000000056,0000001074,072629,087710,076478,074952,085822,068197,093821,087634
0000000057,0000001094,072252,087757,076468,074952,085832,068005,093915,087634
0000000058,0000001113,071874,087804,076459,074952,085842,067812,094009,087634
0000000059,0000001133,071493,087851,076450,074952,085852,067620,094101,087634
0000000060,0000001152,071111,087898,076442,074952,085862,067427,094193,087634
0000000061,0000001172,070726,087944,076434,074952,085872,067235,094283,087634
0000000062,0000001191,070339,087991,076426,074952,085883,067042,094373,087634
0000000063,0000001211,069951,088037,076418,074952,085893,066850,094461,087634
0000000064,0000001230,069561,088084,076411,074952,085903,066657,094549,087634
0000000065,0000001250,069168,088130,076404,074952,085914,066465,094636,087634
0000000066,0000001270,068774,088176,076397,074952,085925,066273,094721,087634
0000000067,0000001289,068378,088222,076391,074952,085935,066081,094806,087634
0000000068,0000001309,067980,088268,076385,074952,085946,065888,094889,087634
0000000069,0000001328,067581,088314,076379,074952,085957,065696,094972,087634
0000000070,0000001348,067179,088359,076373,074952,085968,065504,095053,087634
0000000071,0000001367,066776,088405,076368,074952,085979,065312,095134,087634
0000000072,0000001387,066371,088450,076363,074952,085991,065121,095213,087634
0000000073,0000001406,065964,088495,076359,074952,086002,064929,095292,087634
0000000074,0000001426,065555,088540,076354,074952,086013,064737,095369,087634
0000000075,0000001445,065145,088585,076350,074952,086025,064546,095446,087634
0000000076,0000001465,064733,088630,076347,074952,086037,064355,095521,087634
0000000077,0000001484,064319,088675,076343,074952,086048,064163,095596,087634
0000000078,0000001504,063903,088720,076340,074952,086060,063972,095669,087634
0000000079,0000001523,063487,088764,076337,074952,086072,063781,095741,087634
0000000080,0000001543,063068,088808,076335,074952,086084,063591,095812,087634
0000000081,0000001563,062648,088853,076333,074952,086096,063400,095883,087634
0000000082,0000001582,062225,088897,076331,074952,086108,063210,095952,087634
0000000083,0000001602,061802,088941,076330,074952,086120,063019,096020,087634
0000000084,0000001621,061376,088984,076328,074952,086133,062829,096087,087634
0000000085,0000001641,060950,089028,076327,074952,086145,062639,096153,087634
0000000086,0000001660,060521,089071,076327,074952,086157,062450,096217,087634
0000000087,0000001680,060091,089115,076327,074952,086170,062260,096282,087634
0000000088,0000001699,059659,089158,076327,074952,086183,062071,096344,087634
0000000089,0000001719,059227,089201,076327,074952,086195,061882,096406,087634
0000000090,0000001738,058791,089244,076328,074952,086208,061693,096466,087634
0000000091,0000001758,058356,089286,076328,074952,086221,061504,096526,087634
0000000092,0000001777,057918,089329,076330,074952,086234,061316,096585,087634
0000000093,0000001797,057479,089371,076331,074952,086247,061128,096642,087634
0000000094,0000001816,057038,089413,076333,074952,086260,060940,096698,087634
0000000095,0000001836,056597,089455,076335,074952,086273,060753,096754,087634
0000000096,0000001855,056153,089497,076338,074952,086287,060565,096808,087634
0000000097,0000001875,055709,089539,076340,074952,086300,060378,096861,087634
0000000098,0000001895,055263,089581,076344,074952,086314,060192,096913,087634
0000000099,0000001914,054816,089622,076347,074952,086327,060005,096964,087634
0000000100,0000001934,054367,089663,076351,074952,086341,059819,097014,087634
0000000101,0000001953,053917,089704,076354,074952,086355,059633,097062,087634
0000000102,0000001973,053465,089745,076359,074952,086368,059448,097110,087634
0000000103,0000001992,053013,089786,076363,074952,086382,059262,097157,087634
0000000104,0000002012,052559,089826,076368,074952,086396,059077,097202,087634
0000000105,0000002031,052104,089866,076373,074952,086410,058893,097246,087634
0000000106,0000002051,051647,089907,076379,074952,086424,058709,097290,087634
0000000107,0000002070,051190,089947,076385,074952,086438,058525,097332,087634
0000000108,0000002090,050731,089986,076391,074952,086453,058341,097373,087634
0000000109,0000002109,050271,090026,076397,074952,086467,058158,097413,087634
0000000110,0000002129,049810,090065,076404,074952,086481,057975,097452,087634
0000000111,0000002148,049348,090105,076411,074952,086496,057793,097489,087634
0000000112,0000002168,048884,090144,076418,074952,086510,057611,097526,087634
0000000113,0000002188,048420,090182,076426,074952,086525,057429,097561,087634
0000000114,0000002207,047954,090221,076434,074952,086540,057248,097596,087634
0000000115,0000002227,047487,090259,076442,074952,086554,057067,097629,087634
0000000116,0000002246,047020,090298,076451,074952,086569,056887,097661,087634
0000000117,0000002266,046551,090336,076459,074952,086584,056707,097692,087634
0000000118,0000002285,046081,090374,076469,074952,086599,056527,097722,087634
0000000119,0000002305,045610,090411,076478,074952,086614,056348,097751,087634
0000000120,0000002324,045139,090449,076488,074952,086629,056169,097779,087634
0000000121,0000002344,044666,090486,076498,074952,086645,055991,097805,087634
0000000122,0000002363,044192,090523,076508,074952,086660,055813,097831,087634
0000000123,0000002383,043717,090560,076519,074952,086675,055636,097855,087634
0000000124,0000002402,043242,090597,076530,074952,086690,055458,097878,087634
0000000125,0000002422,042765,090633,076541,074952,086706,055282,097900,087634
0000000126,0000002441,042288,090669,076552,074952,086721,055106,097921,087634
0000000127,0000002461,041809,090705,076564,074952,086737,054931,097940,087634
0000000128,0000002480,041331,090741,076576,074952,086753,054755,097960,087634
0000000129,0000002500,040850,090777,076589,074952,086768,054581,097977,087634
0000000130,0000002520,040370,090812,076601,074952,086784,054407,097994,087634
0000000131,0000002539,039888,090847,076614,074952,086800,054234,098008,087634
0000000132,0000002559,039406,090882,076628,074952,086816,054060,098023,087634
0000000133,0000002578,038923,090917,076641,074952,086832,053888,098036,087634
0000000134,0000002598,038439,090951,076655,074952,086848,053716,098048,087634
0000000135,0000002617,037954,090986,076669,074952,086864,053545,098058,087634
0000000136,0000002637,037469,091020,076684,074952,086880,053374,098068,087634
0000000137,0000002656,036983,091053,076699,074952,086896,053204,098076,087634
0000000138,0000002676,036497,091087,076714,074952,086912,053034,098084,087634
0000000139,0000002695,036009,091120,076729,074952,086929,052865,098090,087634
0000000140,0000002715,035522,091154,076745,074952,086945,052696,098095,087634
0000000141,0000002734,035033,091186,076761,074952,086961,052528,098099,087634
0000000142,0000002754,034544,091219,076777,074952,086978,052360,098102,087634
0000000143,0000002773,034055,091252,076793,074952,086994,052193,098104,087634
0000000144,0000002793,033564,091284,076810,074952,087011,052027,098104,087634
0000000145,0000002813,033074,091316,076827,074952,087028,051861,098104,087634
0000000146,0000002832,032582,091348,076844,074952,087044,051696,098102,087634
0000000147,0000002852,032091,091379,076862,074952,087061,051532,098099,087634
0000000148,0000002871,031598,091410,076880,074952,087078,051368,098095,087634
0000000149,0000002891,031106,091441,076898,074952,087095,051205,098090,087634
0000000150,0000002910,030613,091472,076917,074952,087112,051042,098084,087634
0000000151,0000002930,030119,091503,076936,074952,087128,050880,098076,087634
0000000152,0000002949,029625,091533,076955,074952,087145,050719,098068,087634
0000000153,0000002969,029131,091563,076974,074952,087162,050558,098058,087634
0000000154,0000002988,028636,091593,076994,074952,087180,050398,098047,087634
0000000155,0000003008,028141,091623,077014,074952,087197,050238,098036,087634
0000000156,0000003027,027646,091652,077034,074952,087214,050080,098023,087634
0000000157,0000003047,027150,091681,077054,074952,087231,049922,098009,087634
0000000158,0000003066,026654,091710,077075,074952,087248,049764,097993,087634
0000000159,0000003086,026158,091739,077096,074952,087266,049608,097977,087634
0000000160,0000003105,025661,091767,077117,074952,087283,049452,097959,087634
0000000161,0000003125,025164,091795,077139,074952,087300,049296,097941,087634
0000000162,0000003145,024667,091823,077161,074952,087318,049142,097921,087634
0000000163,0000003164,024170,091850,077183,074952,087335,048988,097900,087634
0000000164,0000003184,023673,091878,077205,074952,087353,048835,097878,087634
0000000165,0000003203,023175,091905,077228,074952,087370,048682,097855,087634
0000000166,0000003223,022677,091932,077251,074952,087388,048530,097830,087634
0000000167,0000003242,022180,091958,077274,074952,087406,048379,097805,087634
0000000168,0000003262,021682,091984,077298,074952,087423,048229,097778,087634
0000000169,0000003281,021184,092011,077321,074952,087441,048079,097751,087634
0000000170,0000003301,020685,092036,077345,074952,087459,047931,097722,087634
0000000171,0000003320,020187,092062,077370,074952,087477,047782,097692,087634
0000000172,0000003340,019689,092087,077394,074952,087494,047635,097661,087634
0000000173,0000003359,019191,092112,077419,074952,087512,047489,097629,087634
0000000174,0000003379,018693,092137,077444,074952,087530,047343,097595,087634
0000000175,0000003398,018195,092161,077469,074952,087548,047198,097561,087634
0000000176,0000003418,017697,092185,077495,074952,087566,047054,097525,087634
0000000177,0000003438,017198,092209,077521,074952,087584,046910,097489,087634
0000000178,0000003457,016700,092233,077547,074952,087602,046768,097451,087634
0000000179,0000003477,016203,092257,077574,074952,087620,046626,097413,087634
0000000180,0000003496,015705,092280,077600,074952,087638,046485,097372,087634
0000000181,0000003516,015207,092302,077627,074952,087656,046345,097332,087634
0000000182,0000003535,014710,092325,077654,074952,087675,046205,097289,087634
0000000183,0000003555,014212,092347,077682,074952,087693,046067,097246,087634
0000000184,0000003574,013715,092369,077710,074952,087711,045929,097201,087634
0000000185,0000003594,013218,092391,077737,074952,087729,045792,097156,087634
0000000186,0000003613,012722,092413,077766,074952,087748,045656,097110,087634
0000000187,0000003633,012225,092434,077794,074952,087766,045521,097062,087634
0000000188,0000003652,011729,092455,077823,074952,087784,045386,097013,087634
0000000189,0000003672,011233,092475,077852,074952,087802,045253,096963,087634
0000000190,0000003691,010738,092496,077881,074952,087821,045120,096912,087634
0000000191,0000003711,010242,092516,077910,074952,087839,044988,096860,087634
0000000192,0000003730,009747,092536,077940,074952,087858,044857,096807,087634
0000000193,0000003750,009253,092555,077970,074952,087876,044727,096753,087634
0000000194,0000003770,008759,092574,078000,074952,087895,044598,096698,087634
0000000195,0000003789,008265,092593,078031,074952,087913,044469,096642,087634
0000000196,0000003809,007772,092612,078061,074952,087931,044342,096584,087634
0000000197,0000003828,007279,092630,078092,074952,087950,044215,096526,087634
0000000198,0000003848,006786,092649,078123,074952,087969,044089,096466,087634
0000000199,0000003867,006294,092666,078155,074952,087987,043965,096405,087634
0000000200,0000003887,005803,092684,078186,074952,088006,043841,096344,087634
0000000201,0000003906,005312,092701,078218,074952,088024,043718,096281,087634
0000000202,0000003926,004821,092718,078250,074952,088043,043596,096217,087634
0000000203,0000003945,004331,092735,078282,074952,088061,043475,096152,087634
0000000204,0000003965,003842,092751,078315,074952,088080,043354,096086,087634
0000000205,0000003984,003353,092767,078348,074952,088099,043235,096019,087634
0000000206,0000004004,002865,092783,078381,074952,088117,043116,095951,087634
0000000207,0000004023,002378,092799,078414,074952,088136,042999,095882,087634
0000000208,0000004043,001890,092814,078447,074952,088155,042882,095812,087634
0000000209,0000004062,001404,092829,078481,074952,088173,042767,095740,087634
0000000210,0000004082,000918,092843,078515,074952,088192,042652,095669,087634
0000000211,0000004102,000434,092858,078549,074952,088211,042539,095595,087634
0000000212,0000004121,-00051,092872,078584,074952,088229,042425,095521,087634
0000000213,0000004141,-00534,092886,078618,074952,088248,042314,095445,087634
0000000214,0000004160,-01017,092899,078653,074952,088267,042203,095369,087634
0000000215,0000004180,-01498,092912,078688,074952,088286,042093,095291,087634
0000000216,0000004199,-01980,092925,078723,074952,088304,041984,095213,087634
0000000217,0000004219,-02460,092938,078759,074952,088323,041877,095133,087634
0000000218,0000004238,-02940,092950,078794,074952,088342,041769,095053,087634
0000000219,0000004258,-03418,092962,078830,074952,088361,041664,094971,087634
0000000220,0000004277,-03896,092974,078866,074952,088379,041558,094889,087634
0000000221,0000004297,-04373,092985,078903,074952,088398,041455,094805,087634
0000000222,0000004316,-04849,092996,078939,074952,088417,041351,094721,087634
0000000223,0000004336,-05324,093007,078976,074952,088436,041250,094635,087634
0000000224,0000004355,-05799,093018,079013,074952,088454,041149,094548,087634
0000000225,0000004375,-06272,093028,079050,074952,088473,041049,094460,087634
0000000226,0000004395,-06744,093038,079087,074952,088492,040950,094372,087634
0000000227,0000004414,-07216,093047,079125,074952,088511,040852,094282,087634
0000000228,0000004434,-07686,093057,079162,074952,088529,040755,094192,087634
0000000229,0000004453,-08155,093065,079200,074952,088548,040659,094100,087634
0000000230,0000004473,-08624,093074,079239,074952,088567,040564,094008,087634
0000000231,0000004492,-09091,093083,079277,074952,088586,040471,093914,087634
0000000232,0000004512,-09557,093091,079315,074952,088604,040378,093820,087634
0000000233,0000004531,-10022,093098,079354,074952,088623,040286,093724,087634
0000000234,0000004551,-10486,093106,079393,074952,088642,040195,093628,087634
0000000235,0000004570,-10949,093113,079432,074952,088661,040106,093530,087634
0000000236,0000004590,-11411,093120,079471,074952,088679,040017,093432,087634
0000000237,0000004609,-11872,093127,079511,074952,088698,039929,093333,087634
0000000238,0000004629,-12331,093133,079550,074952,088717,039843,093232,087634
0000000239,0000004648,-12789,093139,079590,074952,088735,039757,093131,087634
0000000240,0000004668,-13246,093145,079630,074952,088754,039673,093029,087634
0000000241,0000004687,-13702,093150,079671,074952,088773,039589,092926,087634
0000000242,0000004707,-14156,093155,079711,074952,088791,039507,092822,087634
0000000243,0000004727,-14610,093160,079751,074952,088810,039426,092717,087634
0000000244,0000004746,-15062,093164,079792,074952,088828,039346,092611,087634
0000000245,0000004766,-15513,093168,079833,074952,088847,039267,092504,087634
0000000246,0000004785,-15962,093172,079874,074952,088866,039189,092396,087634
