±‰µÁ’æ1_µ‰–Õ∑¯…‰Õ¯,KX3_2,2000
8,08A,00D
1,KX3_2:n:U:bus2:A,A,,kV,0.00010000000,-1.911801,0.000000,-61762,99998,1,1,P
2,KX3_2:n:U:bus2:B,B,,kV,0.0010000000,-83.535728,0.000000,67566,99998,1,1,P
3,KX3_2:n:U:bus2:C,C,,kV,0.0010000000,-83.499168,0.000000,65079,99998,1,1,P
4,KX3_2:n:U0x3:bus2,,,kV,0.0010000000,-72.131004,0.000000,38995,99998,1,1,P
5,KX3_2:m:I:bus2:A,A,,kA,0.000010000000,-0.884422,0.000000,74210,99998,1,1,P
6,KX3_2:m:I:bus2:B,B,,kA,0.0000010000000,-0.06795149,0.000000,33159,99998,1,1,P
7,KX3_2:m:I:bus2:C,C,,kA,0.0000010000000,-0.06818108,0.000000,36196,99998,1,1,P
8,KX3_2:m:I0x3:bus2,,,kA,0.000010000000,-0.875481,0.000000,75733,99998,1,1,P
50
1
51200.000000,30719
29/01/2018,11:06:01.00000
29/01/2018,11:06:01.00000
ASCII
1.000000
0000000001,0000000000,089760,083499,076472,072131,085455,078557,087453,087548
0000000002,0000000020,089510,083549,076447,072131,085459,078375,087594,087548
0000000003,0000000039,089259,083599,076422,072131,085463,078194,087735,087548
0000000004,0000000059,089004,083649,076397,072131,085467,078012,087875,087548
0000000005,0000000078,088748,083699,076373,072131,085471,077829,088014,087548
0000000006,0000000098,088487,083749,076349,072131,085476,077646,088152,087548
0000000007,0000000117,088226,083799,076325,072131,085480,077463,088290,087548
0000000008,0000000137,087960,083849,076302,072131,085485,077280,088427,087548
0000000009,0000000156,087694,083898,076279,072131,085490,077096,088564,087548
0000000010,0000000176,087423,083948,076256,072131,085494,076912,088699,087548
0000000011,0000000195,087151,083998,076233,072131,085499,076727,088834,087548
0000000012,0000000215,086875,084048,076211,072131,085504,076542,088968,087548
0000000013,0000000234,086598,084098,076189,072131,085510,076357,089101,087548
0000000014,0000000254,086317,084148,076167,072131,085515,076171,089233,087548
0000000015,0000000273,086035,084198,076146,072131,085520,075986,089365,087548
0000000016,0000000293,085750,084247,076124,072131,085526,075799,089495,087548
0000000017,0000000313,085462,084297,076103,072131,085532,075613,089626,087548
0000000018,0000000332,085172,084347,076083,072131,085537,075426,089755,087548
0000000019,0000000352,084879,084396,076062,072131,085543,075239,089883,087548
0000000020,0000000371,084584,084446,076042,072131,085549,075052,090011,087548
0000000021,0000000391,084286,084496,076022,072131,085555,074864,090137,087548
0000000022,0000000410,083986,084545,076003,072131,085562,074677,090263,087548
0000000023,0000000430,083683,084595,075984,072131,085568,074488,090388,087548
0000000024,0000000449,083378,084644,075965,072131,085574,074300,090512,087548
0000000025,0000000469,083071,084694,075946,072131,085581,074112,090636,087548
0000000026,0000000488,082761,084743,075927,072131,085587,073923,090758,087548
0000000027,0000000508,082449,084793,075909,072131,085594,073734,090880,087548
0000000028,0000000527,082134,084842,075891,072131,085601,073545,091001,087548
0000000029,0000000547,081817,084891,075874,072131,085608,073355,091121,087548
0000000030,0000000566,081498,084940,075857,072131,085615,073166,091240,087548
0000000031,0000000586,081176,084990,075840,072131,085622,072976,091358,087548
0000000032,0000000605,080853,085039,075823,072131,085629,072786,091476,087548
0000000033,0000000625,080526,085088,075806,072131,085637,072595,091592,087548
0000000034,0000000645,080198,085137,075790,072131,085644,072405,091708,087548
0000000035,0000000664,079866,085186,075774,072131,085652,072214,091822,087548
0000000036,0000000684,079533,085235,075759,072131,085659,072024,091936,087548
0000000037,0000000703,079197,085283,075744,072131,085667,071833,092049,087548
0000000038,0000000723,078860,085332,075729,072131,085675,071642,092161,087548
0000000039,0000000742,078519,085381,075714,072131,085683,071451,092272,087548
0000000040,0000000762,078178,085429,075700,072131,085691,071259,092383,087548
0000000041,0000000781,077833,085478,075686,072131,085700,071068,092492,087548
0000000042,0000000801,077487,085526,075672,072131,085708,070877,092601,087548
0000000043,0000000820,077137,085575,075658,072131,085716,070685,092708,087548
0000000044,0000000840,076787,085623,075645,072131,085725,070493,092815,087548
0000000045,0000000859,076433,085671,075632,072131,085733,070301,092920,087548
0000000046,0000000879,076078,085719,075619,072131,085742,070109,093025,087548
0000000047,0000000898,075720,085767,075607,072131,085751,069917,093128,087548
0000000048,0000000918,075361,085816,075595,072131,085760,069725,093231,087548
0000000049,0000000938,074998,085863,075583,072131,085769,069533,093333,087548
0000000050,0000000957,074635,085911,075572,072131,085778,069341,093434,087548
0000000051,0000000977,074268,085959,075561,072131,085787,069149,093534,087548
0000000052,0000000996,073901,086007,075550,072131,085797,068956,093633,087548
0000000053,0000001016,073530,086054,075540,072131,085806,068764,093731,087548
0000000054,0000001035,073158,086102,075529,072131,085815,068572,093828,087548
0000000055,0000001055,072784,086149,075519,072131,085825,068379,093924,087548
0000000056,0000001074,072408,086196,075510,072131,085835,068187,094020,087548
0000000057,0000001094,072029,086243,075500,072131,085845,067994,094114,087548
0000000058,0000001113,071649,086290,075491,072131,085855,067802,094207,087548
0000000059,0000001133,071267,086337,075483,072131,085865,067610,094299,087548
0000000060,0000001152,070883,086384,075474,072131,085875,067417,094390,087548
0000000061,0000001172,070496,086431,075466,072131,085885,067225,094481,087548
0000000062,0000001191,070109,086477,075458,072131,085895,067032,094570,087548
0000000063,0000001211,069718,086524,075451,072131,085906,066840,094658,087548
0000000064,0000001230,069327,086570,075444,072131,085916,066648,094746,087548
0000000065,0000001250,068933,086617,075437,072131,085927,066456,094832,087548
0000000066,0000001270,068537,086663,075430,072131,085937,066263,094917,087548
0000000067,0000001289,068140,086709,075424,072131,085948,066071,095001,087548
0000000068,0000001309,067740,086755,075418,072131,085959,065879,095085,087548
0000000069,0000001328,067339,086801,075412,072131,085970,065687,095167,087548
0000000070,0000001348,066936,086846,075407,072131,085981,065495,095248,087548
0000000071,0000001367,066531,086892,075402,072131,085992,065304,095329,087548
0000000072,0000001387,066125,086937,075397,072131,086004,065112,095408,087548
0000000073,0000001406,065716,086983,075392,072131,086015,064920,095486,087548
0000000074,0000001426,065306,087028,075388,072131,086026,064729,095563,087548
0000000075,0000001445,064895,087073,075384,072131,086038,064538,095639,087548
0000000076,0000001465,064481,087118,075381,072131,086049,064346,095714,087548
0000000077,0000001484,064066,087163,075378,072131,086061,064155,095788,087548
0000000078,0000001504,063648,087207,075375,072131,086073,063964,095861,087548
0000000079,0000001523,063230,087252,075372,072131,086085,063774,095933,087548
0000000080,0000001543,062809,087296,075370,072131,086097,063583,096004,087548
0000000081,0000001563,062388,087340,075368,072131,086109,063392,096074,087548
0000000082,0000001582,061964,087384,075366,072131,086121,063202,096143,087548
0000000083,0000001602,061539,087428,075364,072131,086133,063012,096211,087548
0000000084,0000001621,061112,087472,075363,072131,086146,062822,096277,087548
0000000085,0000001641,060684,087516,075362,072131,086158,062632,096343,087548
0000000086,0000001660,060253,087559,075362,072131,086170,062443,096407,087548
0000000087,0000001680,059823,087603,075362,072131,086183,062253,096472,087548
0000000088,0000001699,059389,087646,075362,072131,086196,062064,096533,087548
0000000089,0000001719,058955,087689,075362,072131,086208,061875,096595,087548
0000000090,0000001738,058518,087732,075363,072131,086221,061687,096655,087548
0000000091,0000001758,058081,087774,075364,072131,086234,061498,096715,087548
0000000092,0000001777,057642,087817,075366,072131,086247,061310,096773,087548
0000000093,0000001797,057202,087859,075367,072131,086260,061122,096830,087548
0000000094,0000001816,056759,087902,075369,072131,086273,060935,096886,087548
0000000095,0000001836,056316,087944,075371,072131,086287,060747,096941,087548
0000000096,0000001855,055871,087986,075374,072131,086300,060560,096995,087548
0000000097,0000001875,055426,088027,075377,072131,086313,060373,097048,087548
0000000098,0000001895,054978,088069,075380,072131,086327,060187,097099,087548
0000000099,0000001914,054529,088110,075383,072131,086340,060000,097150,087548
0000000100,0000001934,054079,088151,075387,072131,086354,059814,097199,087548
0000000101,0000001953,053628,088193,075391,072131,086368,059629,097248,087548
0000000102,0000001973,053175,088233,075396,072131,086382,059443,097295,087548
0000000103,0000001992,052721,088274,075401,072131,086396,059258,097341,087548
0000000104,0000002012,052265,088315,075406,072131,086409,059074,097386,087548
0000000105,0000002031,051809,088355,075411,072131,086424,058889,097431,087548
0000000106,0000002051,051351,088395,075416,072131,086438,058705,097473,087548
0000000107,0000002070,050892,088435,075422,072131,086452,058521,097515,087548
0000000108,0000002090,050432,088475,075429,072131,086466,058338,097556,087548
0000000109,0000002109,049971,088514,075435,072131,086480,058155,097596,087548
0000000110,0000002129,049508,088554,075442,072131,086495,057973,097634,087548
0000000111,0000002148,049044,088593,075449,072131,086509,057790,097672,087548
0000000112,0000002168,048580,088632,075457,072131,086524,057608,097708,087548
0000000113,0000002188,048114,088671,075464,072131,086538,057427,097743,087548
0000000114,0000002207,047647,088710,075472,072131,086553,057246,097777,087548
0000000115,0000002227,047179,088748,075481,072131,086568,057065,097810,087548
0000000116,0000002246,046710,088786,075489,072131,086583,056885,097842,087548
0000000117,0000002266,046239,088824,075498,072131,086598,056705,097873,087548
0000000118,0000002285,045768,088862,075508,072131,086613,056526,097902,087548
0000000119,0000002305,045296,088900,075517,072131,086628,056347,097931,087548
0000000120,0000002324,044823,088937,075527,072131,086643,056168,097958,087548
0000000121,0000002344,044349,088975,075537,072131,086658,055990,097984,087548
0000000122,0000002363,043874,089012,075548,072131,086673,055812,098010,087548
0000000123,0000002383,043397,089049,075558,072131,086689,055635,098033,087548
0000000124,0000002402,042921,089085,075569,072131,086704,055458,098057,087548
0000000125,0000002422,042443,089122,075581,072131,086719,055282,098078,087548
0000000126,0000002441,041964,089158,075592,072131,086735,055106,098099,087548
0000000127,0000002461,041484,089194,075604,072131,086751,054931,098118,087548
0000000128,0000002480,041004,089230,075616,072131,086766,054756,098137,087548
0000000129,0000002500,040523,089265,075629,072131,086782,054582,098154,087548
0000000130,0000002520,040041,089301,075642,072131,086798,054408,098170,087548
0000000131,0000002539,039558,089336,075655,072131,086813,054235,098185,087548
0000000132,0000002559,039074,089371,075668,072131,086829,054062,098199,087548
0000000133,0000002578,038590,089405,075682,072131,086845,053890,098211,087548
0000000134,0000002598,038105,089440,075696,072131,086861,053718,098223,087548
0000000135,0000002617,037619,089474,075711,072131,086877,053547,098233,087548
0000000136,0000002637,037133,089508,075725,072131,086894,053376,098243,087548
0000000137,0000002656,036645,089542,075740,072131,086910,053206,098251,087548
0000000138,0000002676,036158,089576,075755,072131,086926,053037,098258,087548
0000000139,0000002695,035669,089609,075771,072131,086942,052868,098264,087548
0000000140,0000002715,035180,089642,075787,072131,086959,052699,098269,087548
0000000141,0000002734,034690,089675,075803,072131,086975,052532,098273,087548
0000000142,0000002754,034200,089708,075819,072131,086992,052364,098275,087548
0000000143,0000002773,033709,089740,075836,072131,087008,052198,098277,087548
0000000144,0000002793,033218,089772,075853,072131,087025,052031,098277,087548
0000000145,0000002813,032726,089804,075870,072131,087041,051866,098276,087548
0000000146,0000002832,032233,089836,075887,072131,087058,051701,098274,087548
0000000147,0000002852,031740,089868,075905,072131,087075,051537,098271,087548
0000000148,0000002871,031247,089899,075923,072131,087091,051373,098267,087548
0000000149,0000002891,030753,089930,075942,072131,087108,051210,098261,087548
0000000150,0000002910,030259,089961,075960,072131,087125,051048,098255,087548
0000000151,0000002930,029764,089991,075979,072131,087142,050886,098247,087548
0000000152,0000002949,029269,090022,075998,072131,087159,050725,098238,087548
0000000153,0000002969,028773,090052,076018,072131,087176,050564,098228,087548
0000000154,0000002988,028277,090081,076038,072131,087193,050405,098217,087548
0000000155,0000003008,027781,090111,076058,072131,087210,050245,098205,087548
0000000156,0000003027,027284,090140,076078,072131,087228,050087,098192,087548
0000000157,0000003047,026788,090169,076099,072131,087245,049929,098178,087548
0000000158,0000003066,026290,090198,076120,072131,087262,049772,098162,087548
0000000159,0000003086,025793,090227,076141,072131,087279,049616,098145,087548
0000000160,0000003105,025295,090255,076162,072131,087297,049460,098127,087548
0000000161,0000003125,024798,090283,076184,072131,087314,049305,098109,087548
0000000162,0000003145,024299,090311,076206,072131,087332,049151,098088,087548
0000000163,0000003164,023801,090338,076228,072131,087349,048997,098067,087548
0000000164,0000003184,023303,090366,076251,072131,087367,048844,098045,087548
0000000165,0000003203,022804,090393,076273,072131,087384,048691,098022,087548
0000000166,0000003223,022305,090420,076297,072131,087402,048540,097997,087548
0000000167,0000003242,021806,090446,076320,072131,087419,048389,097971,087548
0000000168,0000003262,021307,090472,076344,072131,087437,048239,097944,087548
0000000169,0000003281,020808,090498,076367,072131,087455,048090,097917,087548
0000000170,0000003301,020309,090524,076392,072131,087473,047942,097887,087548
0000000171,0000003320,019810,090550,076416,072131,087490,047793,097857,087548
0000000172,0000003340,019311,090575,076441,072131,087508,047647,097826,087548
0000000173,0000003359,018811,090600,076466,072131,087526,047500,097794,087548
0000000174,0000003379,018312,090624,076491,072131,087544,047355,097760,087548
0000000175,0000003398,017813,090649,076517,072131,087562,047210,097725,087548
0000000176,0000003418,017314,090673,076542,072131,087580,047066,097689,087548
0000000177,0000003438,016815,090697,076568,072131,087598,046923,097653,087548
0000000178,0000003457,016316,090720,076595,072131,087616,046781,097614,087548
0000000179,0000003477,015817,090744,076621,072131,087634,046639,097576,087548
0000000180,0000003496,015318,090767,076648,072131,087652,046499,097535,087548
0000000181,0000003516,014819,090790,076675,072131,087670,046358,097494,087548
0000000182,0000003535,014321,090812,076702,072131,087688,046220,097451,087548
0000000183,0000003555,013823,090834,076730,072131,087707,046081,097408,087548
0000000184,0000003574,013325,090856,076758,072131,087725,045944,097363,087548
0000000185,0000003594,012827,090878,076786,072131,087743,045807,097318,087548
0000000186,0000003613,012329,090899,076814,072131,087761,045671,097271,087548
0000000187,0000003633,011832,090921,076843,072131,087780,045536,097223,087548
0000000188,0000003652,011335,090941,076872,072131,087798,045402,097174,087548
0000000189,0000003672,010838,090962,076901,072131,087816,045269,097124,087548
0000000190,0000003691,010341,090982,076930,072131,087835,045136,097073,087548
0000000191,0000003711,009845,091002,076960,072131,087853,045005,097021,087548
0000000192,0000003730,009349,091022,076990,072131,087871,044874,096967,087548
0000000193,0000003750,008854,091042,077020,072131,087890,044744,096913,087548
0000000194,0000003770,008359,091061,077050,072131,087908,044615,096857,087548
0000000195,0000003789,007864,091080,077081,072131,087927,044487,096801,087548
0000000196,0000003809,007370,091098,077111,072131,087945,044360,096743,087548
0000000197,0000003828,006876,091117,077142,072131,087964,044233,096684,087548
0000000198,0000003848,006383,091135,077174,072131,087982,044108,096625,087548
0000000199,0000003867,005890,091152,077205,072131,088001,043984,096564,087548
0000000200,0000003887,005398,091170,077237,072131,088019,043860,096502,087548
0000000201,0000003906,004906,091187,077269,072131,088038,043737,096439,087548
0000000202,0000003926,004415,091204,077301,072131,088056,043615,096375,087548
0000000203,0000003945,003924,091221,077334,072131,088075,043494,096309,087548
0000000204,0000003965,003434,091237,077366,072131,088094,043374,096243,087548
0000000205,0000003984,002944,091253,077399,072131,088112,043255,096176,087548
0000000206,0000004004,002455,091269,077433,072131,088131,043137,096108,087548
0000000207,0000004023,001967,091284,077466,072131,088150,043020,096038,087548
0000000208,0000004043,001479,091299,077500,072131,088168,042904,095968,087548
0000000209,0000004062,000992,091314,077533,072131,088187,042789,095896,087548
0000000210,0000004082,000506,091329,077567,072131,088206,042674,095824,087548
0000000211,0000004102,000020,091343,077602,072131,088224,042561,095750,087548
0000000212,0000004121,-00465,091357,077636,072131,088243,042448,095676,087548
0000000213,0000004141,-00949,091371,077671,072131,088262,042337,095600,087548
0000000214,0000004160,-01433,091384,077706,072131,088281,042226,095524,087548
0000000215,0000004180,-01915,091397,077741,072131,088299,042117,095446,087548
0000000216,0000004199,-02397,091410,077776,072131,088318,042008,095367,087548
0000000217,0000004219,-02878,091422,077812,072131,088337,041901,095287,087548
0000000218,0000004238,-03358,091435,077848,072131,088355,041793,095207,087548
0000000219,0000004258,-03837,091446,077884,072131,088374,041688,095125,087548
0000000220,0000004277,-04316,091458,077920,072131,088393,041583,095042,087548
0000000221,0000004297,-04794,091469,077957,072131,088412,041480,094958,087548
0000000222,0000004316,-05271,091480,077993,072131,088430,041377,094874,087548
0000000223,0000004336,-05746,091491,078030,072131,088449,041276,094788,087548
0000000224,0000004355,-06221,091502,078067,072131,088468,041175,094701,087548
0000000225,0000004375,-06695,091512,078105,072131,088487,041075,094613,087548
0000000226,0000004395,-07168,091522,078142,072131,088505,040976,094524,087548
0000000227,0000004414,-07640,091531,078180,072131,088524,040879,094434,087548
0000000228,0000004434,-08111,091540,078218,072131,088543,040782,094344,087548
0000000229,0000004453,-08581,091549,078256,072131,088562,040687,094252,087548
0000000230,0000004473,-09050,091558,078294,072131,088580,040592,094159,087548
0000000231,0000004492,-09518,091566,078332,072131,088599,040499,094065,087548
0000000232,0000004512,-09984,091574,078371,072131,088618,040406,093971,087548
0000000233,0000004531,-10450,091582,078410,072131,088637,040315,093875,087548
0000000234,0000004551,-10915,091589,078449,072131,088655,040224,093778,087548
0000000235,0000004570,-11378,091596,078488,072131,088674,040135,093681,087548
0000000236,0000004590,-11840,091603,078528,072131,088693,040047,093582,087548
0000000237,0000004609,-12301,091610,078567,072131,088711,039959,093483,087548
0000000238,0000004629,-12761,091616,078607,072131,088730,039873,093382,087548
0000000239,0000004648,-13220,091622,078647,072131,088749,039788,093281,087548
0000000240,0000004668,-13677,091627,078687,072131,088767,039704,093178,087548
0000000241,0000004687,-14134,091632,078728,072131,088786,039621,093075,087548
0000000242,0000004707,-14589,091637,078768,072131,088805,039539,092971,087548
0000000243,0000004727,-15043,091642,078809,072131,088823,039458,092866,087548
0000000244,0000004746,-15495,091646,078850,072131,088842,039378,092760,087548
0000000245,0000004766,-15946,091650,078891,072131,088860,039299,092653,087548
0000000246,0000004785,-16396,091654,078932,072131,088879,039222,092545,087548
