±‰µÁ’æ1_µ‰–Õ∑¯…‰Õ¯,KX3_5,2000
8,08A,00D
1,KX3_5:n:U:bus2:A,A,,kV,0.00010000000,-1.987746,0.000000,-60243,99998,1,1,P
2,KX3_5:n:U:bus2:B,B,,kV,0.0010000000,-85.569679,0.000000,69413,99998,1,1,P
3,KX3_5:n:U:bus2:C,C,,kV,0.0010000000,-84.653702,0.000000,66073,99998,1,1,P
4,KX3_5:n:U0x3:bus2,,,kV,0.0010000000,-73.061615,0.000000,39828,99998,1,1,P
5,KX3_5:m:I:bus2:A,A,,kA,0.0000010000000,-0.06649189,0.000000,35774,99998,1,1,P
6,KX3_5:m:I:bus2:B,B,,kA,0.0000010000000,-0.06801055,0.000000,34570,99998,1,1,P
7,KX3_5:m:I:bus2:C,C,,kA,0.0000010000000,-0.06852998,0.000000,36765,99998,1,1,P
8,KX3_5:m:I0x3:bus2,,,kA,0.0000010000000,-0.08882950,0.000000,76240,99998,1,1,P
50
1
51200.000000,30719
29/01/2018,11:06:01.00000
29/01/2018,11:06:01.00000
ASCII
1.000000
0000000001,0000000000,090304,085458,077723,073062,036518,078814,087701,088830
0000000002,0000000020,090060,085507,077698,073062,036557,078632,087843,088830
0000000003,0000000039,089816,085557,077673,073062,036596,078451,087986,088830
0000000004,0000000059,089566,085606,077648,073062,036638,078268,088126,088830
0000000005,0000000078,089317,085656,077624,073062,036679,078086,088267,088830
0000000006,0000000098,089062,085705,077600,073062,036723,077903,088406,088830
0000000007,0000000117,088807,085755,077576,073062,036767,077720,088545,088830
0000000008,0000000137,088547,085804,077552,073062,036813,077536,088683,088830
0000000009,0000000156,088287,085854,077529,073062,036859,077352,088821,088830
0000000010,0000000176,088022,085903,077506,073062,036907,077168,088957,088830
0000000011,0000000195,087757,085953,077483,073062,036956,076983,089093,088830
0000000012,0000000215,087487,086002,077460,073062,037006,076798,089228,088830
0000000013,0000000234,087216,086052,077438,073062,037057,076613,089362,088830
0000000014,0000000254,086942,086101,077416,073062,037109,076428,089495,088830
0000000015,0000000273,086666,086150,077394,073062,037162,076242,089628,088830
0000000016,0000000293,086386,086200,077373,073062,037217,076055,089760,088830
0000000017,0000000313,086105,086249,077352,073062,037272,075869,089891,088830
0000000018,0000000332,085821,086298,077331,073062,037329,075682,090021,088830
0000000019,0000000352,085534,086348,077310,073062,037387,075495,090151,088830
0000000020,0000000371,085245,086397,077290,073062,037446,075307,090279,088830
0000000021,0000000391,084954,086446,077270,073062,037505,075120,090407,088830
0000000022,0000000410,084660,086495,077250,073062,037566,074932,090534,088830
0000000023,0000000430,084364,086544,077230,073062,037628,074744,090661,088830
0000000024,0000000449,084065,086594,077211,073062,037691,074555,090786,088830
0000000025,0000000469,083764,086643,077192,073062,037756,074366,090910,088830
0000000026,0000000488,083460,086692,077173,073062,037821,074177,091034,088830
0000000027,0000000508,083154,086741,077155,073062,037887,073988,091157,088830
0000000028,0000000527,082846,086790,077137,073062,037955,073799,091279,088830
0000000029,0000000547,082535,086839,077119,073062,038023,073609,091400,088830
0000000030,0000000566,082222,086887,077101,073062,038093,073419,091520,088830
0000000031,0000000586,081906,086936,077084,073062,038164,073229,091639,088830
0000000032,0000000605,081589,086985,077067,073062,038235,073039,091758,088830
0000000033,0000000625,081268,087034,077051,073062,038308,072849,091876,088830
0000000034,0000000645,080947,087082,077034,073062,038382,072658,091993,088830
0000000035,0000000664,080621,087131,077018,073062,038457,072467,092108,088830
0000000036,0000000684,080295,087180,077002,073062,038533,072276,092223,088830
0000000037,0000000703,079965,087228,076987,073062,038610,072085,092337,088830
0000000038,0000000723,079634,087276,076971,073062,038688,071894,092451,088830
0000000039,0000000742,079300,087325,076956,073062,038767,071702,092563,088830
0000000040,0000000762,078965,087373,076942,073062,038847,071511,092674,088830
0000000041,0000000781,078625,087421,076927,073062,038929,071319,092785,088830
0000000042,0000000801,078286,087469,076913,073062,039011,071127,092895,088830
0000000043,0000000820,077942,087517,076899,073062,039094,070935,093003,088830
0000000044,0000000840,077598,087565,076886,073062,039178,070743,093111,088830
0000000045,0000000859,077250,087613,076873,073062,039264,070551,093217,088830
0000000046,0000000879,076902,087661,076860,073062,039350,070359,093324,088830
0000000047,0000000898,076550,087709,076847,073062,039438,070167,093428,088830
0000000048,0000000918,076197,087757,076835,073062,039526,069974,093532,088830
0000000049,0000000938,075841,087804,076823,073062,039616,069782,093635,088830
0000000050,0000000957,075484,087852,076811,073062,039706,069589,093738,088830
0000000051,0000000977,075123,087899,076800,073062,039797,069397,093838,088830
0000000052,0000000996,074762,087947,076788,073062,039890,069204,093939,088830
0000000053,0000001016,074398,087994,076778,073062,039983,069011,094038,088830
0000000054,0000001035,074032,088041,076767,073062,040078,068818,094136,088830
0000000055,0000001055,073664,088088,076757,073062,040173,068626,094233,088830
0000000056,0000001074,073294,088135,076747,073062,040269,068433,094330,088830
0000000057,0000001094,072922,088182,076737,073062,040367,068240,094425,088830
0000000058,0000001113,072548,088229,076728,073062,040465,068047,094520,088830
0000000059,0000001133,072172,088275,076719,073062,040565,067854,094613,088830
0000000060,0000001152,071794,088322,076710,073062,040665,067662,094706,088830
0000000061,0000001172,071414,088368,076701,073062,040767,067469,094797,088830
0000000062,0000001191,071032,088415,076693,073062,040869,067276,094888,088830
0000000063,0000001211,070648,088461,076685,073062,040972,067083,094977,088830
0000000064,0000001230,070262,088507,076678,073062,041076,066891,095066,088830
0000000065,0000001250,069875,088553,076670,073062,041181,066698,095153,088830
0000000066,0000001270,069485,088599,076663,073062,041288,066505,095240,088830
0000000067,0000001289,069094,088645,076657,073062,041395,066313,095325,088830
0000000068,0000001309,068700,088691,076650,073062,041503,066120,095409,088830
0000000069,0000001328,068305,088736,076644,073062,041612,065928,095493,088830
0000000070,0000001348,067908,088782,076638,073062,041722,065735,095575,088830
0000000071,0000001367,067510,088827,076633,073062,041832,065543,095657,088830
0000000072,0000001387,067109,088872,076628,073062,041944,065351,095737,088830
0000000073,0000001406,066707,088918,076623,073062,042057,065159,095817,088830
0000000074,0000001426,066303,088963,076618,073062,042171,064967,095895,088830
0000000075,0000001445,065897,089007,076614,073062,042285,064775,095973,088830
0000000076,0000001465,065490,089052,076610,073062,042401,064583,096049,088830
0000000077,0000001484,065081,089097,076606,073062,042517,064392,096124,088830
0000000078,0000001504,064669,089141,076603,073062,042634,064200,096198,088830
0000000079,0000001523,064257,089185,076600,073062,042752,064009,096272,088830
0000000080,0000001543,063842,089230,076597,073062,042871,063818,096343,088830
0000000081,0000001563,063427,089274,076595,073062,042991,063627,096415,088830
0000000082,0000001582,063009,089318,076593,073062,043112,063436,096484,088830
0000000083,0000001602,062590,089361,076591,073062,043234,063245,096554,088830
0000000084,0000001621,062169,089405,076589,073062,043356,063055,096621,088830
0000000085,0000001641,061747,089448,076588,073062,043479,062864,096689,088830
0000000086,0000001660,061322,089492,076587,073062,043604,062674,096754,088830
0000000087,0000001680,060898,089535,076586,073062,043729,062484,096819,088830
0000000088,0000001699,060470,089578,076586,073062,043855,062295,096882,088830
0000000089,0000001719,060042,089621,076586,073062,043982,062105,096946,088830
0000000090,0000001738,059611,089664,076586,073062,044110,061916,097007,088830
0000000091,0000001758,059180,089706,076587,073062,044238,061727,097068,088830
0000000092,0000001777,058746,089749,076588,073062,044368,061538,097126,088830
0000000093,0000001797,058312,089791,076589,073062,044498,061349,097185,088830
0000000094,0000001816,057876,089833,076591,073062,044629,061161,097242,088830
0000000095,0000001836,057439,089875,076592,073062,044761,060973,097299,088830
0000000096,0000001855,056999,089917,076594,073062,044894,060785,097353,088830
0000000097,0000001875,056559,089958,076597,073062,045027,060598,097408,088830
0000000098,0000001895,056117,090000,076600,073062,045162,060410,097460,088830
0000000099,0000001914,055675,090041,076603,073062,045297,060223,097512,088830
0000000100,0000001934,055230,090082,076606,073062,045433,060037,097563,088830
0000000101,0000001953,054785,090123,076610,073062,045569,059850,097613,088830
0000000102,0000001973,054337,090164,076613,073062,045707,059664,097661,088830
0000000103,0000001992,053889,090205,076618,073062,045845,059479,097709,088830
0000000104,0000002012,053440,090245,076622,073062,045984,059293,097755,088830
0000000105,0000002031,052989,090285,076627,073062,046124,059108,097800,088830
0000000106,0000002051,052537,090325,076632,073062,046265,058923,097844,088830
0000000107,0000002070,052083,090365,076638,073062,046406,058739,097887,088830
0000000108,0000002090,051629,090405,076643,073062,046548,058555,097929,088830
0000000109,0000002109,051173,090444,076649,073062,046691,058371,097970,088830
0000000110,0000002129,050716,090484,076656,073062,046835,058188,098010,088830
0000000111,0000002148,050258,090523,076662,073062,046979,058005,098048,088830
0000000112,0000002168,049799,090562,076669,073062,047124,057822,098086,088830
0000000113,0000002188,049339,090601,076677,073062,047270,057640,098122,088830
0000000114,0000002207,048877,090639,076684,073062,047417,057458,098158,088830
0000000115,0000002227,048415,090678,076692,073062,047564,057277,098192,088830
0000000116,0000002246,047951,090716,076700,073062,047712,057096,098225,088830
0000000117,0000002266,047486,090754,076709,073062,047861,056915,098256,088830
0000000118,0000002285,047021,090792,076717,073062,048010,056735,098288,088830
0000000119,0000002305,046554,090829,076726,073062,048160,056555,098317,088830
0000000120,0000002324,046086,090867,076736,073062,048311,056376,098346,088830
0000000121,0000002344,045617,090904,076745,073062,048463,056197,098373,088830
0000000122,0000002363,045148,090941,076755,073062,048614,056018,098400,088830
0000000123,0000002383,044677,090978,076765,073062,048768,055840,098424,088830
0000000124,0000002402,044206,091015,076776,073062,048921,055663,098449,088830
0000000125,0000002422,043733,091051,076787,073062,049075,055486,098471,088830
0000000126,0000002441,043260,091087,076798,073062,049230,055309,098494,088830
0000000127,0000002461,042785,091123,076809,073062,049385,055133,098514,088830
0000000128,0000002480,042311,091159,076821,073062,049541,054957,098534,088830
0000000129,0000002500,041834,091195,076833,073062,049698,054782,098552,088830
0000000130,0000002520,041358,091230,076845,073062,049855,054607,098570,088830
0000000131,0000002539,040880,091265,076858,073062,050014,054433,098585,088830
0000000132,0000002559,040402,091300,076871,073062,050172,054260,098601,088830
0000000133,0000002578,039922,091335,076884,073062,050331,054087,098614,088830
0000000134,0000002598,039443,091369,076897,073062,050491,053914,098627,088830
0000000135,0000002617,038962,091404,076911,073062,050652,053742,098639,088830
0000000136,0000002637,038480,091438,076925,073062,050813,053570,098650,088830
0000000137,0000002656,037998,091472,076940,073062,050974,053400,098659,088830
0000000138,0000002676,037516,091505,076954,073062,051136,053229,098667,088830
0000000139,0000002695,037032,091539,076969,073062,051299,053059,098674,088830
0000000140,0000002715,036548,091572,076984,073062,051463,052890,098680,088830
0000000141,0000002734,036063,091605,077000,073062,051627,052721,098685,088830
0000000142,0000002754,035578,091638,077016,073062,051791,052553,098689,088830
0000000143,0000002773,035092,091670,077032,073062,051956,052385,098691,088830
0000000144,0000002793,034606,091702,077048,073062,052122,052218,098693,088830
0000000145,0000002813,034118,091734,077065,073062,052288,052052,098693,088830
0000000146,0000002832,033631,091766,077082,073062,052454,051886,098692,088830
0000000147,0000002852,033143,091798,077099,073062,052622,051721,098690,088830
0000000148,0000002871,032654,091829,077117,073062,052789,051556,098687,088830
0000000149,0000002891,032165,091860,077134,073062,052958,051392,098682,088830
0000000150,0000002910,031676,091891,077152,073062,053126,051229,098677,088830
0000000151,0000002930,031186,091922,077171,073062,053296,051066,098671,088830
0000000152,0000002949,030695,091952,077189,073062,053465,050904,098663,088830
0000000153,0000002969,030204,091982,077208,073062,053636,050743,098654,088830
0000000154,0000002988,029713,092012,077228,073062,053806,050582,098644,088830
0000000155,0000003008,029222,092042,077247,073062,053977,050422,098633,088830
0000000156,0000003027,028730,092071,077267,073062,054149,050262,098621,088830
0000000157,0000003047,028237,092101,077287,073062,054321,050104,098608,088830
0000000158,0000003066,027745,092129,077307,073062,054494,049946,098593,088830
0000000159,0000003086,027252,092158,077328,073062,054667,049788,098578,088830
0000000160,0000003105,026759,092187,077349,073062,054840,049631,098561,088830
0000000161,0000003125,026265,092215,077370,073062,055014,049475,098543,088830
0000000162,0000003145,025772,092243,077391,073062,055189,049320,098524,088830
0000000163,0000003164,025278,092270,077413,073062,055363,049165,098504,088830
0000000164,0000003184,024784,092298,077435,073062,055539,049011,098482,088830
0000000165,0000003203,024290,092325,077457,073062,055714,048858,098460,088830
0000000166,0000003223,023795,092352,077480,073062,055890,048706,098437,088830
0000000167,0000003242,023301,092379,077502,073062,056067,048553,098412,088830
0000000168,0000003262,022806,092405,077525,073062,056244,048403,098386,088830
0000000169,0000003281,022311,092431,077549,073062,056421,048252,098360,088830
0000000170,0000003301,021816,092457,077572,073062,056598,048103,098331,088830
0000000171,0000003320,021321,092483,077596,073062,056776,047954,098303,088830
0000000172,0000003340,020826,092508,077620,073062,056955,047806,098272,088830
0000000173,0000003359,020331,092533,077645,073062,057133,047658,098241,088830
0000000174,0000003379,019836,092558,077669,073062,057312,047512,098208,088830
0000000175,0000003398,019341,092583,077694,073062,057491,047366,098175,088830
0000000176,0000003418,018846,092607,077719,073062,057671,047221,098140,088830
0000000177,0000003438,018351,092631,077745,073062,057851,047077,098104,088830
0000000178,0000003457,017856,092655,077771,073062,058032,046934,098067,088830
0000000179,0000003477,017361,092679,077796,073062,058212,046791,098029,088830
0000000180,0000003496,016866,092702,077823,073062,058393,046649,097990,088830
0000000181,0000003516,016372,092725,077849,073062,058575,046508,097950,088830
0000000182,0000003535,015877,092748,077876,073062,058756,046368,097908,088830
0000000183,0000003555,015383,092770,077903,073062,058938,046228,097866,088830
0000000184,0000003574,014889,092792,077930,073062,059120,046090,097822,088830
0000000185,0000003594,014394,092814,077958,073062,059303,045952,097778,088830
0000000186,0000003613,013901,092836,077985,073062,059486,045815,097732,088830
0000000187,0000003633,013407,092857,078013,073062,059668,045679,097685,088830
0000000188,0000003652,012914,092878,078042,073062,059852,045544,097637,088830
0000000189,0000003672,012421,092899,078070,073062,060035,045409,097588,088830
0000000190,0000003691,011928,092920,078099,073062,060219,045276,097537,088830
0000000191,0000003711,011435,092940,078128,073062,060403,045143,097486,088830
0000000192,0000003730,010943,092960,078157,073062,060587,045011,097434,088830
0000000193,0000003750,010451,092980,078186,073062,060772,044880,097380,088830
0000000194,0000003770,009960,092999,078216,073062,060956,044750,097326,088830
0000000195,0000003789,009469,093018,078246,073062,061141,044621,097270,088830
0000000196,0000003809,008978,093037,078276,073062,061326,044493,097214,088830
0000000197,0000003828,008487,093056,078307,073062,061511,044365,097156,088830
0000000198,0000003848,007998,093074,078337,073062,061697,044239,097097,088830
0000000199,0000003867,007508,093092,078368,073062,061882,044113,097037,088830
0000000200,0000003887,007019,093110,078399,073062,062068,043988,096976,088830
0000000201,0000003906,006531,093127,078431,073062,062254,043865,096914,088830
0000000202,0000003926,006043,093144,078462,073062,062440,043741,096851,088830
0000000203,0000003945,005555,093161,078494,073062,062626,043620,096786,088830
0000000204,0000003965,005068,093178,078526,073062,062813,043498,096721,088830
0000000205,0000003984,004582,093194,078559,073062,062999,043378,096655,088830
0000000206,0000004004,004096,093210,078591,073062,063186,043259,096588,088830
0000000207,0000004023,003611,093226,078624,073062,063373,043141,096519,088830
0000000208,0000004043,003126,093242,078657,073062,063560,043023,096450,088830
0000000209,0000004062,002642,093257,078690,073062,063747,042907,096379,088830
0000000210,0000004082,002159,093272,078724,073062,063934,042791,096308,088830
0000000211,0000004102,001676,093286,078757,073062,064121,042677,096234,088830
0000000212,0000004121,001194,093301,078791,073062,064309,042563,096161,088830
0000000213,0000004141,000713,093314,078825,073062,064496,042450,096086,088830
0000000214,0000004160,000232,093328,078860,073062,064683,042338,096011,088830
0000000215,0000004180,-00247,093342,078894,073062,064871,042228,095933,088830
0000000216,0000004199,-00727,093355,078929,073062,065059,042118,095856,088830
0000000217,0000004219,-01205,093367,078964,073062,065246,042009,095777,088830
0000000218,0000004238,-01682,093380,078999,073062,065434,041901,095697,088830
0000000219,0000004258,-02159,093392,079035,073062,065622,041795,095616,088830
0000000220,0000004277,-02635,093404,079070,073062,065809,041689,095534,088830
0000000221,0000004297,-03110,093416,079106,073062,065997,041584,095451,088830
0000000222,0000004316,-03584,093427,079142,073062,066185,041480,095367,088830
0000000223,0000004336,-04057,093438,079178,073062,066373,041377,095282,088830
0000000224,0000004355,-04530,093449,079215,073062,066561,041275,095196,088830
0000000225,0000004375,-05001,093460,079252,073062,066749,041175,095109,088830
0000000226,0000004395,-05471,093470,079288,073062,066936,041075,095021,088830
0000000227,0000004414,-05941,093480,079326,073062,067124,040976,094932,088830
0000000228,0000004434,-06410,093489,079363,073062,067312,040878,094842,088830
0000000229,0000004453,-06877,093499,079400,073062,067500,040781,094751,088830
0000000230,0000004473,-07344,093508,079438,073062,067688,040686,094659,088830
0000000231,0000004492,-07809,093516,079476,073062,067875,040591,094566,088830
0000000232,0000004512,-08274,093525,079514,073062,068063,040497,094472,088830
0000000233,0000004531,-08737,093533,079552,073062,068250,040405,094377,088830
0000000234,0000004551,-09199,093541,079591,073062,068438,040313,094282,088830
0000000235,0000004570,-09661,093548,079629,073062,068625,040222,094185,088830
0000000236,0000004590,-10121,093555,079668,073062,068813,040133,094087,088830
0000000237,0000004609,-10580,093562,079707,073062,069000,040044,093988,088830
0000000238,0000004629,-11038,093569,079746,073062,069187,039957,093888,088830
0000000239,0000004648,-11494,093575,079786,073062,069374,039871,093788,088830
0000000240,0000004668,-11950,093581,079825,073062,069561,039785,093686,088830
0000000241,0000004687,-12404,093587,079865,073062,069748,039701,093584,088830
0000000242,0000004707,-12857,093592,079905,073062,069935,039618,093480,088830
0000000243,0000004727,-13309,093597,079945,073062,070121,039536,093376,088830
0000000244,0000004746,-13760,093602,079985,073062,070308,039455,093270,088830
0000000245,0000004766,-14209,093606,080026,073062,070494,039375,093164,088830
0000000246,0000004785,-14657,093611,080066,073062,070680,039296,093056,088830
